
SetupTitle, HEMT_transfer
PrimitiveTest, I/V Sweep
TestParameter, Context.MainFrame, B1500A
TestParameter, Channel.UnitType, SMU, SMU, SMU
TestParameter, Channel.Unit, SMU1:MP, SMU2:MC, GNDU:GND
TestParameter, Channel.IName, Id, Ig, Is
TestParameter, Channel.VName, Vd, Vg, Vs
TestParameter, Channel.Mode, V, V, COMMON
TestParameter, Channel.Func, CONST, VAR1, CONST
TestParameter, Channel.Index, 
TestParameter, Channel.Time, 
TestParameter, Measurement.Port.Unit, SMU1:MP, SMU2:MC, GNDU:GND
TestParameter, Measurement.Port.SeriesResistor, NONE, NONE, NONE
TestParameter, Measurement.Port.Filter, ON, ON, ON
TestParameter, Measurement.Port.OutputVoltageComparison, 0, 0, 0
TestParameter, Measurement.Primary.Locus, Single
TestParameter, Measurement.Primary.Scale, LINEAR
TestParameter, Measurement.Primary.Start, -5
TestParameter, Measurement.Primary.Stop, 5
TestParameter, Measurement.Primary.Step, 0.05
TestParameter, Measurement.Primary.Compliance, 0.001
TestParameter, Measurement.Primary.PowerCompliance, 0
TestParameter, Measurement.Aborting.Condition, CONTINUE AT ANY
TestParameter, Measurement.PostOutput.Value, START
TestParameter, Measurement.PostOutput.Retention, OFF
TestParameter, Measurement.Bias.Source, 5, -5, 0
TestParameter, Measurement.Bias.Compliance, 0.1, 0.001, 2
TestParameter, Measurement.Monitor.Unit, SMU1:MP, SMU2:MC, GNDU:GND
TestParameter, Measurement.Monitor.Adc, HR ADC, HS ADC, HR ADC
TestParameter, Measurement.Monitor.Measurement, Compliance Side, Force and Compliance Sides, Compliance Side
TestParameter, Measurement.Monitor.RangingMode, LIMITED, LIMITED, LIMITED
TestParameter, Measurement.Monitor.RangeBoundary, 1nA, 10uA, 1nA
TestParameter, Measurement.Monitor.RangeRating, BY FULL RANGE, BY FULL RANGE, BY FULL RANGE
TestParameter, Measurement.Monitor.RangeRatingCoeff, 50, 50, 50
TestParameter, Measurement.Timing.Hold, 0
TestParameter, Measurement.Timing.Delay, 0
TestParameter, Measurement.Adc.HighSpeed.Mode, PLC
TestParameter, Measurement.Adc.HighSpeed.Coeff, 2
TestParameter, Measurement.Adc.HighResolution.AutoZero, OFF
TestParameter, Measurement.Adc.HighResolution.Mode, PLC
TestParameter, Measurement.Adc.HighResolution.Coeff, 2
TestParameter, Measurement.WaitTime.Source.Coeff, 1
TestParameter, Measurement.WaitTime.Source.Offset, 0
TestParameter, Measurement.WaitTime.Monitor.Coeff, 1
TestParameter, Measurement.WaitTime.Monitor.Offset, 0
TestParameter, Function.User.Name, Id_dens, Ig_dens, gm
TestParameter, Function.User.Unit, A/mm, A/mm, S/mm
TestParameter, Function.User.Definition, Id/0.06, abs(Ig)/0.06, diff(Id_dens,Vg)
TestParameter, Output.Graph.Enabled, true
TestParameter, Output.Graph.AutoScaling, false
TestParameter, Output.Graph.XAxis.Data, Vg
TestParameter, Output.Graph.XAxis.Scale, Linear
TestParameter, Output.Graph.XAxis.Left, -2
TestParameter, Output.Graph.XAxis.Right, 10
TestParameter, Output.Graph.XAxis.RunTimeAutoScale, false
TestParameter, Output.Graph.YAxis.Data, Id_dens, Id_dens, gm, Ig_dens
TestParameter, Output.Graph.YAxis.Scale, Log, Linear, Linear, Log
TestParameter, Output.Graph.YAxis.Bottom, 0, 0, 0, 0
TestParameter, Output.Graph.YAxis.Top, 1, 1, 1, 1
TestParameter, Output.Graph.YAxis.Group, , , , 
TestParameter, Output.Graph.YAxis.RunTimeAutoScale, false, false, false, false
TestParameter, Output.List.Data, Vg, Id_dens, Ig_dens, Vd, gm
TestParameter, AutoAnalysis.Interpolation, false
TestParameter, AutoAnalysis.Line1.Enabled, false
TestParameter, AutoAnalysis.Line1.Type, 1
TestParameter, AutoAnalysis.Line1.Fix, True
TestParameter, AutoAnalysis.Line1.YAxis, 0
TestParameter, AutoAnalysis.Line1.Point1.Type, 0
TestParameter, AutoAnalysis.Line1.Point1.XY.X, 
TestParameter, AutoAnalysis.Line1.Point1.XY.Y, 
TestParameter, AutoAnalysis.Line1.Point1.Data.Var, 
TestParameter, AutoAnalysis.Line1.Point1.Data.Condition, 
TestParameter, AutoAnalysis.Line1.Point1.Data.Start, false
TestParameter, AutoAnalysis.Line1.Point1.Data.StartVar, 
TestParameter, AutoAnalysis.Line1.Point1.Data.StartCondition, 
TestParameter, AutoAnalysis.Line1.Point2.Type, 0
TestParameter, AutoAnalysis.Line1.Point2.XY.X, 
TestParameter, AutoAnalysis.Line1.Point2.XY.Y, 
TestParameter, AutoAnalysis.Line1.Point2.Data.Var, 
TestParameter, AutoAnalysis.Line1.Point2.Data.Condition, 
TestParameter, AutoAnalysis.Line1.Point2.Data.Start, false
TestParameter, AutoAnalysis.Line1.Point2.Data.StartVar, 
TestParameter, AutoAnalysis.Line1.Point2.Data.StartCondition, 
TestParameter, AutoAnalysis.Line1.GradientExpr, 0
TestParameter, AutoAnalysis.Line2.Enabled, false
TestParameter, AutoAnalysis.Line2.Type, 1
TestParameter, AutoAnalysis.Line2.Fix, True
TestParameter, AutoAnalysis.Line2.YAxis, 0
TestParameter, AutoAnalysis.Line2.Point1.Type, 0
TestParameter, AutoAnalysis.Line2.Point1.XY.X, 
TestParameter, AutoAnalysis.Line2.Point1.XY.Y, 
TestParameter, AutoAnalysis.Line2.Point1.Data.Var, 
TestParameter, AutoAnalysis.Line2.Point1.Data.Condition, 
TestParameter, AutoAnalysis.Line2.Point1.Data.Start, false
TestParameter, AutoAnalysis.Line2.Point1.Data.StartVar, 
TestParameter, AutoAnalysis.Line2.Point1.Data.StartCondition, 
TestParameter, AutoAnalysis.Line2.Point2.Type, 0
TestParameter, AutoAnalysis.Line2.Point2.XY.X, 
TestParameter, AutoAnalysis.Line2.Point2.XY.Y, 
TestParameter, AutoAnalysis.Line2.Point2.Data.Var, 
TestParameter, AutoAnalysis.Line2.Point2.Data.Condition, 
TestParameter, AutoAnalysis.Line2.Point2.Data.Start, false
TestParameter, AutoAnalysis.Line2.Point2.Data.StartVar, 
TestParameter, AutoAnalysis.Line2.Point2.Data.StartCondition, 
TestParameter, AutoAnalysis.Line2.GradientExpr, 0
TestParameter, AutoAnalysis.Marker.Enabled, false
TestParameter, AutoAnalysis.Marker.Data.Var, 
TestParameter, AutoAnalysis.Marker.Data.Condition, 
TestParameter, AutoAnalysis.Marker.Data.Start, false
TestParameter, AutoAnalysis.Marker.Data.StartVar, 
TestParameter, AutoAnalysis.Marker.Data.StartCondition, 
MetaData, TestRecord.EntryPoint, true
MetaData, TestRecord.RecordTime, 08/16/2019 12:33:13
MetaData, TestRecord.TestTarget, 
MetaData, TestRecord.IterationIndex, 1
MetaData, TestRecord.Preservation, true
MetaData, TestRecord.Flag, #
MetaData, TestRecord.Remarks, #089_LPCVD_trigate_die3_r1c3_SFP_W100
MetaData, TestRecord.LinkKey, 1f0109d9-9962-413e-9d5b-60ddac9ff637
Dimension1, 201, 201, 201, 201, 201, 201, 201
Dimension2, 1, 1, 1, 1, 1, 1, 1
DataName, Vd, Id, Ig, Vg, Id_dens, Ig_dens, gm
DataValue, 5, 6.5330000000000005E-12, -2.2000000000000002E-10, -5, 1.0888333333333335E-10, 3.6666666666666672E-09, -4.256666666666682E-10
DataValue, 5, 5.256E-12, -1.8000000000000003E-10, -4.95, 8.7600000000000013E-11, 3.0000000000000004E-09, -3.2266666666666778E-10
DataValue, 5, 4.5970000000000007E-12, -1.7E-10, -4.9, 7.6616666666666684E-11, 2.8333333333333335E-09, -2.1866666666666757E-10
DataValue, 5, 3.944E-12, -1.8000000000000003E-10, -4.8500000000000005, 6.5733333333333334E-11, 3.0000000000000004E-09, -1.4850000000000057E-10
DataValue, 5, 3.7060000000000006E-12, -1.7E-10, -4.8000000000000007, 6.1766666666666678E-11, 2.8333333333333335E-09, -1.0149999999999938E-10
DataValue, 5, 3.3350000000000002E-12, -1.7E-10, -4.75, 5.5583333333333342E-11, 2.8333333333333335E-09, -7.6999999999999618E-11
DataValue, 5, 3.2440000000000003E-12, -1.7E-10, -4.7, 5.4066666666666675E-11, 2.8333333333333335E-09, -5.1666666666666863E-11
DataValue, 5, 3.025E-12, -1.6000000000000002E-10, -4.65, 5.0416666666666674E-11, 2.666666666666667E-09, -6.25000000000002E-11
DataValue, 5, 2.8690000000000004E-12, -1.6000000000000002E-10, -4.6000000000000005, 4.7816666666666677E-11, 2.666666666666667E-09, -4.6500000000000214E-11
DataValue, 5, 2.7460000000000002E-12, -1.6000000000000002E-10, -4.5500000000000007, 4.5766666666666669E-11, 2.666666666666667E-09, -3.5999999999999863E-11
DataValue, 5, 2.653E-12, -1.6000000000000002E-10, -4.5, 4.4216666666666672E-11, 2.666666666666667E-09, -4.0166666666666431E-11
DataValue, 5, 2.5050000000000003E-12, -1.6000000000000002E-10, -4.45, 4.1750000000000004E-11, 2.666666666666667E-09, -5.0833333333333533E-11
DataValue, 5, 2.348E-12, -1.6000000000000002E-10, -4.4, 3.9133333333333336E-11, 2.666666666666667E-09, -4.2166666666666825E-11
DataValue, 5, 2.252E-12, -1.5000000000000003E-10, -4.3500000000000005, 3.7533333333333337E-11, 2.5000000000000005E-09, -1.6666666666665375E-13
DataValue, 5, 2.347E-12, -1.6000000000000002E-10, -4.3000000000000007, 3.9116666666666671E-11, 2.666666666666667E-09, -7.3333333333332822E-12
DataValue, 5, 2.2080000000000003E-12, -1.6000000000000002E-10, -4.25, 3.6800000000000005E-11, 2.666666666666667E-09, -3.0999999999999841E-11
DataValue, 5, 2.161E-12, -1.5000000000000003E-10, -4.2, 3.601666666666667E-11, 2.5000000000000005E-09, -9.6666666666666931E-12
DataValue, 5, 2.1500000000000003E-12, -1.5000000000000003E-10, -4.15, 3.5833333333333339E-11, 2.5000000000000005E-09, -1.1166666666666707E-11
DataValue, 5, 2.094E-12, -1.5000000000000003E-10, -4.1000000000000005, 3.4900000000000004E-11, 2.5000000000000005E-09, -2.3333333333333466E-11
DataValue, 5, 2.01E-12, -1.5000000000000003E-10, -4.0500000000000007, 3.35E-11, 2.5000000000000005E-09, -2.049999999999991E-11
DataValue, 5, 1.971E-12, -1.5000000000000003E-10, -4, 3.285E-11, 2.5000000000000005E-09, -2.8333333333332828E-12
DataValue, 5, 1.993E-12, -1.5000000000000003E-10, -3.95, 3.3216666666666671E-11, 2.5000000000000005E-09, -9.3333333333333221E-12
DataValue, 5, 1.9150000000000002E-12, -1.6000000000000002E-10, -3.9000000000000004, 3.1916666666666673E-11, 2.666666666666667E-09, -1.1000000000000053E-11
DataValue, 5, 1.927E-12, -1.5000000000000003E-10, -3.8500000000000005, 3.2116666666666669E-11, 2.5000000000000005E-09, -1.0666666666666698E-11
DataValue, 5, 1.851E-12, -1.5000000000000003E-10, -3.8000000000000003, 3.085E-11, 2.5000000000000005E-09, -1.7000000000000029E-11
DataValue, 5, 1.825E-12, -1.4E-10, -3.7500000000000004, 3.0416666666666665E-11, 2.3333333333333335E-09, 3.333333333333319E-12
DataValue, 5, 1.871E-12, -1.5000000000000003E-10, -3.7, 3.1183333333333334E-11, 2.5000000000000005E-09, -3.6666666666666249E-12
DataValue, 5, 1.803E-12, -1.5000000000000003E-10, -3.6500000000000004, 3.005E-11, 2.5000000000000005E-09, -5.3333333333332842E-12
DataValue, 5, 1.839E-12, -1.4E-10, -3.6, 3.0650000000000005E-11, 2.3333333333333335E-09, -1.8333333333333125E-12
DataValue, 5, 1.792E-12, -1.4E-10, -3.5500000000000003, 2.9866666666666671E-11, 2.3333333333333335E-09, -8.6666666666667062E-12
DataValue, 5, 1.7870000000000002E-12, -1.4E-10, -3.5000000000000004, 2.9783333333333338E-11, 2.3333333333333335E-09, -3.0000000000000127E-12
DataValue, 5, 1.7740000000000001E-12, -1.4E-10, -3.45, 2.9566666666666669E-11, 2.3333333333333335E-09, -2.8E-11
DataValue, 5, 1.619E-12, -1.4E-10, -3.4000000000000004, 2.6983333333333335E-11, 2.3333333333333335E-09, -9.6666666666666511E-12
DataValue, 5, 1.7160000000000002E-12, -1.4E-10, -3.35, 2.8600000000000003E-11, 2.3333333333333335E-09, 2.0000000000000012E-11
DataValue, 5, 1.7390000000000002E-12, -1.4E-10, -3.3000000000000003, 2.8983333333333338E-11, 2.3333333333333335E-09, 8.3333333333333336E-12
DataValue, 5, 1.7660000000000002E-12, -1.4E-10, -3.2500000000000004, 2.9433333333333334E-11, 2.3333333333333335E-09, -1.1499999999999996E-11
DataValue, 5, 1.6700000000000002E-12, -1.4E-10, -3.2, 2.7833333333333337E-11, 2.3333333333333335E-09, -2.5999999999999939E-11
DataValue, 5, 1.6100000000000002E-12, -1.3000000000000002E-10, -3.1500000000000004, 2.6833333333333338E-11, 2.166666666666667E-09, -5.999999999999993E-12
DataValue, 5, 1.6340000000000001E-12, -1.4E-10, -3.1, 2.7233333333333338E-11, 2.3333333333333335E-09, 4.4999999999999869E-12
DataValue, 5, 1.6370000000000002E-12, -1.3000000000000002E-10, -3.0500000000000003, 2.7283333333333337E-11, 2.166666666666667E-09, -1.8333333333333529E-12
DataValue, 5, 1.623E-12, -1.4E-10, -3.0000000000000004, 2.7050000000000003E-11, 2.3333333333333335E-09, -4.3333333333333337E-12
DataValue, 5, 1.6110000000000001E-12, -1.4E-10, -2.95, 2.6850000000000003E-11, 2.3333333333333335E-09, -1.0666666666666665E-11
DataValue, 5, 1.5590000000000001E-12, -1.3000000000000002E-10, -2.9000000000000004, 2.5983333333333335E-11, 2.166666666666667E-09, -1.1999999999999986E-11
DataValue, 5, 1.5390000000000002E-12, -1.3000000000000002E-10, -2.85, 2.5650000000000003E-11, 2.166666666666667E-09, 2.6666666666666744E-12
DataValue, 5, 1.575E-12, -1.3000000000000002E-10, -2.8000000000000003, 2.6250000000000003E-11, 2.166666666666667E-09, 1.900000000000008E-11
DataValue, 5, 1.6530000000000001E-12, -1.3000000000000002E-10, -2.7500000000000004, 2.7550000000000004E-11, 2.166666666666667E-09, 1.1666666666666681E-12
DataValue, 5, 1.5820000000000001E-12, -1.3000000000000002E-10, -2.7, 2.636666666666667E-11, 2.166666666666667E-09, -6.8333333333333227E-12
DataValue, 5, 1.6120000000000002E-12, -1.2E-10, -2.6500000000000004, 2.6866666666666671E-11, 2E-09, -1.3999999999999984E-11
DataValue, 5, 1.498E-12, -1.3000000000000002E-10, -2.6, 2.496666666666667E-11, 2.166666666666667E-09, -1.2666666666666663E-11
DataValue, 5, 1.5360000000000001E-12, -1.3000000000000002E-10, -2.5500000000000003, 2.5600000000000004E-11, 2.166666666666667E-09, -6.333333333333364E-12
DataValue, 5, 1.46E-12, -1.3000000000000002E-10, -2.5, 2.4333333333333333E-11, 2.166666666666667E-09, -6.1666666666666785E-12
DataValue, 5, 1.4990000000000002E-12, -1.2E-10, -2.45, 2.4983333333333336E-11, 2E-09, 1.08333333333334E-11
DataValue, 5, 1.525E-12, -1.3000000000000002E-10, -2.4000000000000004, 2.5416666666666669E-11, 2.166666666666667E-09, -1.3666666666666645E-11
DataValue, 5, 1.4170000000000001E-12, -1.2E-10, -2.35, 2.361666666666667E-11, 2E-09, -3.333333333333319E-12
DataValue, 5, 1.5050000000000002E-12, -1.2E-10, -2.3000000000000003, 2.5083333333333337E-11, 2E-09, 1.8999999999999963E-11
DataValue, 5, 1.531E-12, -1.2E-10, -2.25, 2.5516666666666668E-11, 2E-09, -5.6666666666666875E-12
DataValue, 5, 1.471E-12, -1.3000000000000002E-10, -2.2, 2.4516666666666668E-11, 2.166666666666667E-09, -3.3333333333333335E-12
DataValue, 5, 1.5110000000000001E-12, -1.3000000000000002E-10, -2.1500000000000004, 2.5183333333333336E-11, 2.166666666666667E-09, -3.1666666666666658E-12
DataValue, 5, 1.452E-12, -1.2E-10, -2.1, 2.42E-11, 2E-09, -1.133333333333331E-11
DataValue, 5, 1.4430000000000002E-12, -1.2E-10, -2.0500000000000003, 2.4050000000000004E-11, 2E-09, 3.6666666666666895E-12
DataValue, 5, 1.4740000000000002E-12, -1.2E-10, -2, 2.456666666666667E-11, 2E-09, -1.4166666666666669E-11
DataValue, 5, 1.358E-12, -1.1000000000000001E-10, -1.9500000000000002, 2.2633333333333335E-11, 1.8333333333333336E-09, -1.6666666666666696E-11
DataValue, 5, 1.3740000000000002E-12, -1.2E-10, -1.9000000000000001, 2.2900000000000003E-11, 2E-09, 3.3333333333333513E-12
DataValue, 5, 1.3780000000000002E-12, -1.2E-10, -1.85, 2.2966666666666671E-11, 2E-09, 1.2833333333333317E-11
DataValue, 5, 1.4510000000000002E-12, -1.2E-10, -1.8, 2.4183333333333336E-11, 2E-09, 3.1666666666666727E-12
DataValue, 5, 1.3970000000000002E-12, -1.1000000000000001E-10, -1.7500000000000002, 2.3283333333333338E-11, 1.8333333333333336E-09, 2.0000000000000024E-12
DataValue, 5, 1.4630000000000001E-12, -1.1000000000000001E-10, -1.7000000000000002, 2.4383333333333336E-11, 1.8333333333333336E-09, 1.1666666666666358E-12
DataValue, 5, 1.404E-12, -1.1000000000000001E-10, -1.6500000000000001, 2.34E-11, 1.8333333333333336E-09, -1.1666666666666681E-12
DataValue, 5, 1.456E-12, -1.1000000000000001E-10, -1.6, 2.4266666666666669E-11, 1.8333333333333336E-09, 7.8499999999999936E-11
DataValue, 5, 1.875E-12, -1.1000000000000001E-10, -1.55, 3.125E-11, 1.8333333333333336E-09, 4.33833333333334E-10
DataValue, 5, 4.059E-12, -1.2E-10, -1.5000000000000002, 6.7650000000000007E-11, 2E-09, 2.943000000000004E-09
DataValue, 5, 1.9533000000000002E-11, -1.1000000000000001E-10, -1.4500000000000002, 3.2555000000000003E-10, 1.8333333333333336E-09, 1.8418333333333319E-08
DataValue, 5, 1.14569E-10, -1.1000000000000001E-10, -1.4000000000000001, 1.9094833333333336E-09, 1.8333333333333336E-09, 1.4106783333333323E-07
DataValue, 5, 8.6594E-10, -1.1000000000000001E-10, -1.35, 1.4432333333333334E-08, 1.8333333333333336E-09, 8.3246849999999931E-07
DataValue, 5, 5.10938E-09, -1.0000000000000002E-10, -1.3, 8.5156333333333341E-08, 1.6666666666666669E-09, 4.3533933333333294E-06
DataValue, 5, 2.6986299999999997E-08, -1.1000000000000001E-10, -1.25, 4.4977166666666664E-07, 1.8333333333333336E-09, 1.6393436666666686E-05
DataValue, 5, 1.0347E-07, -1.1000000000000001E-10, -1.2000000000000002, 1.7245E-06, 1.8333333333333336E-09, 4.6515283333333396E-05
DataValue, 5, 3.06078E-07, -8.0000000000000008E-11, -1.1500000000000001, 5.1013E-06, 1.3333333333333335E-09, 0.00013139233333333322
DataValue, 5, 8.91824E-07, -1.0000000000000002E-10, -1.1, 1.4863733333333335E-05, 1.6666666666666669E-09, 0.00036266866666666639
DataValue, 5, 2.48209E-06, -1.1000000000000001E-10, -1.05, 4.1368166666666668E-05, 1.8333333333333336E-09, 0.00091335266666666608
DataValue, 5, 6.371940000000001E-06, -1.1000000000000001E-10, -1, 0.00010619900000000002, 1.8333333333333336E-09, 0.0021021016666666671
DataValue, 5, 1.5094700000000001E-05, -1.0000000000000002E-10, -0.95000000000000007, 0.00025157833333333334, 1.6666666666666669E-09, 0.0041444433333333343
DataValue, 5, 3.12386E-05, -1.0000000000000002E-10, -0.9, 0.00052064333333333337, 1.6666666666666669E-09, 0.0072176500000000025
DataValue, 5, 5.8400600000000005E-05, -1.1000000000000001E-10, -0.85000000000000009, 0.00097334333333333348, 1.8333333333333336E-09, 0.011070566666666669
DataValue, 5, 9.7662E-05, -1.1000000000000001E-10, -0.8, 0.0016277000000000002, 1.8333333333333336E-09, 0.015464400000000003
DataValue, 5, 0.000151187, -1.0000000000000002E-10, -0.75000000000000011, 0.0025197833333333334, 1.6666666666666669E-09, 0.019334333333333335
DataValue, 5, 0.000213668, -1.1000000000000001E-10, -0.70000000000000007, 0.0035611333333333333, 1.8333333333333336E-09, 0.022598833333333318
DataValue, 5, 0.00028678000000000004, -1.0000000000000002E-10, -0.65, 0.0047796666666666673, 1.6666666666666669E-09, 0.025788166666666681
DataValue, 5, 0.000368397, -1.0000000000000002E-10, -0.60000000000000009, 0.0061399500000000008, 1.6666666666666669E-09, 0.028521333333333343
DataValue, 5, 0.00045790800000000003, -1.0000000000000002E-10, -0.55, 0.0076318000000000011, 1.6666666666666669E-09, 0.031106666666666644
DataValue, 5, 0.00055503700000000009, -9.0000000000000012E-11, -0.5, 0.0092506166666666678, 1.5000000000000002E-09, 0.03316149999999999
DataValue, 5, 0.000656877, -1.0000000000000002E-10, -0.45, 0.010947950000000001, 1.6666666666666669E-09, 0.03480783333333335
DataValue, 5, 0.000763884, -1.0000000000000002E-10, -0.4, 0.012731400000000002, 1.6666666666666669E-09, 0.036488833333333345
DataValue, 5, 0.00087581000000000009, -1.0000000000000002E-10, -0.35000000000000003, 0.014596833333333335, 1.6666666666666669E-09, 0.037809666666666658
DataValue, 5, 0.000990742, -1.0000000000000002E-10, -0.30000000000000004, 0.016512366666666667, 1.6666666666666669E-09, 0.038974499999999974
DataValue, 5, 0.001109657, -1.0000000000000002E-10, -0.25, 0.018494283333333333, 1.6666666666666669E-09, 0.040798
DataValue, 5, 0.00123553, -1.0000000000000002E-10, -0.2, 0.020592166666666668, 1.6666666666666669E-09, 0.041397166666666686
DataValue, 5, 0.00135804, -9.0000000000000012E-11, -0.15000000000000002, 0.022634, 1.5000000000000002E-09, 0.041741666666666663
DataValue, 5, 0.00148598, -9.0000000000000012E-11, -0.1, 0.024766333333333335, 1.5000000000000002E-09, 0.043089999999999996
DataValue, 5, 0.00161658, -9.0000000000000012E-11, -0.05, 0.026943, 1.5000000000000002E-09, 0.043868333333333329
DataValue, 5, 0.00174919, -9.0000000000000012E-11, 0, 0.029153166666666668, 1.5000000000000002E-09, 0.044478333333333314
DataValue, 5, 0.00188345, -9.0000000000000012E-11, 0.05, 0.031390833333333333, 1.5000000000000002E-09, 0.04533666666666665
DataValue, 5, 0.00202121, -9.0000000000000012E-11, 0.1, 0.033686833333333333, 1.5000000000000002E-09, 0.046280000000000064
